Circuit: ** DC circuit - 2 **

Direct Newton iteration for .op point skipped.
Gmin stepping method for .op point skipped.
Starting source stepping with srcstepmethod=0
Source Step = 3.0303%
Source Step = 18.1937%
vernier = 0.000976563
Source Step = 18.2114%
Source Step = 18.241%
Source Step = 18.2706%
Source Step = 18.3002%
Source Step = 18.3298%
vernier = 0.00146484
Source Step = 18.3712%
Source Step = 18.4156%
Source Step = 18.46%
Source Step = 18.5044%
Source Step = 18.5488%
vernier = 0.00219727
Source Step = 18.6087%
Source Step = 18.6753%
Source Step = 18.7419%
Source Step = 18.8084%
Source Step = 18.875%
vernier = 0.0032959
Source Step = 18.9616%
Source Step = 19.0615%
Source Step = 19.1613%
Source Step = 19.2612%
Source Step = 19.3611%
vernier = 0.00494385
Source Step = 19.4859%
Source Step = 19.6357%
Source Step = 19.7856%
Source Step = 19.9354%
Source Step = 20.0852%
vernier = 0.00741577
Source Step = 20.265%
Source Step = 20.4897%
Source Step = 20.7144%
Source Step = 20.9391%
Source Step = 21.1638%
vernier = 0.0111237
Source Step = 21.4223%
Source Step = 21.7594%
Source Step = 22.0964%
Source Step = 22.4335%
Source Step = 22.7706%
vernier = 0.0166855
Source Step = 23.1414%
Source Step = 23.647%
Source Step = 24.1526%
Source Step = 24.6582%
Source Step = 25.1639%
vernier = 0.0250282
Source Step = 25.6948%
Source Step = 26.4532%
Source Step = 27.2116%
Source Step = 27.9701%
Source Step = 28.7285%
Source Step = 29.4869%
vernier = 0.0375423
Source Step = 30.6246%
Source Step = 31.7622%
Source Step = 32.8999%
Source Step = 34.0375%
Source Step = 35.1752%
vernier = 0.0563135
Source Step = 36.8247%
Source Step = 38.5312%
Source Step = 40.2377%
Source Step = 41.9442%
Source Step = 43.6506%
vernier = 0.0844703
Source Step = 46.0397%
Source Step = 48.5994%
Source Step = 51.1591%
Source Step = 53.7188%
Source Step = 56.2785%
vernier = 0.126705
Source Step = 59.7341%
Source Step = 63.5737%
Source Step = 67.4132%
Source Step = 71.2528%
Source Step = 75.0923%
vernier = 0.190058
Source Step = 80.0838%
Source Step = 85.8431%
Source Step = 91.6024%
Source Step = 97.3618%
Source stepping succeeded in finding the operating point.

Semiconductor Device Operating Points:
                        --- Diodes ---
Name:    d:u6:n2     d:u6:n1     d:u6:q2     d:u6:q1     d:u6:p
Model:    u6:dy       u6:dy       u6:dx       u6:dx       u6:dx
Id:      1.94e-06    1.94e-06   -6.62e-13    9.99e-05   -1.70e-11
Vd:      6.00e-01    6.00e-01   -6.61e-01    6.61e-01   -1.70e+01
Req:     1.33e+04    1.33e+04    1.00e+12    2.59e+02    1.00e+12
CAP:     0.00e+00    0.00e+00    0.00e+00    0.00e+00    0.00e+00

Name:    d:u6:ln     d:u6:lp     d:u6:e      d:u6:c      d:u4:n2
Model:    u6:dx       u6:dx       u6:dx       u6:dx       u4:dy
Id:     -1.01e-11   -9.90e-12   -9.35e-12   -5.70e-12    1.94e-06
Vd:     -1.01e+01   -9.90e+00   -9.35e+00   -5.70e+00    6.00e-01
Req:     1.00e+12    1.00e+12    1.00e+12    1.00e+12    1.33e+04
CAP:     0.00e+00    0.00e+00    0.00e+00    0.00e+00    0.00e+00

Name:    d:u4:n1     d:u4:q2     d:u4:q1     d:u4:p      d:u4:ln
Model:    u4:dy       u4:dx       u4:dx       u4:dx       u4:dx
Id:      1.94e-06    2.25e-03   -7.42e-13   -1.70e-11   -7.75e-12
Vd:      6.00e-01    7.41e-01   -7.41e-01   -1.70e+01   -7.75e+00
Req:     1.33e+04    1.15e+01    1.00e+12    1.00e+12    1.00e+12
CAP:     0.00e+00    0.00e+00    0.00e+00    0.00e+00    0.00e+00

Name:    d:u4:lp     d:u4:e      d:u4:c      d:u2:n2     d:u2:n1
Model:    u4:dx       u4:dx       u4:dx       u2:dy       u2:dy
Id:     -1.23e-11   -8.58e-12   -6.47e-12    1.94e-06    1.94e-06
Vd:     -1.22e+01   -8.58e+00   -6.47e+00    6.00e-01    6.00e-01
Req:     1.00e+12    1.00e+12    1.00e+12    1.33e+04    1.33e+04
CAP:     0.00e+00    0.00e+00    0.00e+00    0.00e+00    0.00e+00

Name:    d:u2:q2     d:u2:q1     d:u2:p      d:u2:ln     d:u2:lp
Model:    u2:dx       u2:dx       u2:dx       u2:dx       u2:dx
Id:     -7.50e-13    3.04e-03   -1.70e-11   -1.30e-11   -6.96e-12
Vd:     -7.49e-01    7.49e-01   -1.70e+01   -1.30e+01   -6.96e+00
Req:     1.00e+12    8.52e+00    1.00e+12    1.00e+12    1.00e+12
CAP:     0.00e+00    0.00e+00    0.00e+00    0.00e+00    0.00e+00

Name:    d:u2:e      d:u2:c     d:u12:n2    d:u12:n1    d:u12:q2
Model:    u2:dx       u2:dx      u12:dy      u12:dy      u12:dx
Id:     -1.42e-11   -8.52e-13    1.94e-06    1.94e-06    2.17e-04
Vd:     -1.42e+01   -8.51e-01    6.00e-01    6.00e-01    6.81e-01
Req:     1.00e+12    1.00e+12    1.33e+04    1.33e+04    1.19e+02
CAP:     0.00e+00    0.00e+00    0.00e+00    0.00e+00    0.00e+00

Name:   d:u12:q1     d:u12:p    d:u12:ln    d:u12:lp     d:u12:e
Model:   u12:dx      u12:dx      u12:dx      u12:dx      u12:dx
Id:     -6.82e-13   -1.70e-11   -9.78e-12   -1.02e-11   -5.06e-12
Vd:     -6.81e-01   -1.70e+01   -9.78e+00   -1.02e+01   -5.06e+00
Req:     1.00e+12    1.00e+12    1.00e+12    1.00e+12    1.00e+12
CAP:     0.00e+00    0.00e+00    0.00e+00    0.00e+00    0.00e+00

Name:    d:u12:c     d:u5:n2     d:u5:n1     d:u5:q2     d:u5:q1
Model:   u12:dx       u5:dy       u5:dy       u5:dx       u5:dx
Id:     -1.00e-11    1.94e-06    1.94e-06   -6.59e-13    9.14e-05
Vd:     -9.99e+00    6.00e-01    6.00e-01   -6.59e-01    6.59e-01
Req:     1.00e+12    1.33e+04    1.33e+04    1.00e+12    2.83e+02
CAP:     0.00e+00    0.00e+00    0.00e+00    0.00e+00    0.00e+00

Name:    d:u5:p      d:u5:ln     d:u5:lp     d:u5:e      d:u5:c
Model:    u5:dx       u5:dx       u5:dx       u5:dx       u5:dx
Id:     -1.70e-11   -1.01e-11   -9.91e-12   -8.92e-12   -6.13e-12
Vd:     -1.70e+01   -1.01e+01   -9.91e+00   -8.92e+00   -6.13e+00
Req:     1.00e+12    1.00e+12    1.00e+12    1.00e+12    1.00e+12
CAP:     0.00e+00    0.00e+00    0.00e+00    0.00e+00    0.00e+00

Name:    d:u3:n2     d:u3:n1     d:u3:q2     d:u3:q1     d:u3:p
Model:    u3:dy       u3:dy       u3:dx       u3:dx       u3:dx
Id:      1.94e-06    1.94e-06   -6.29e-13    2.79e-05   -1.70e-11
Vd:      6.00e-01    6.00e-01   -6.28e-01    6.28e-01   -1.70e+01
Req:     1.33e+04    1.33e+04    1.00e+12    9.26e+02    1.00e+12
CAP:     0.00e+00    0.00e+00    0.00e+00    0.00e+00    0.00e+00

Name:    d:u3:ln     d:u3:lp     d:u3:e      d:u3:c      d:u8:n2
Model:    u3:dx       u3:dx       u3:dx       u3:dx       u8:dy
Id:     -1.00e-11   -9.97e-12   -5.75e-12   -9.30e-12    1.94e-06
Vd:     -1.00e+01   -9.97e+00   -5.75e+00   -9.30e+00    6.00e-01
Req:     1.00e+12    1.00e+12    1.00e+12    1.00e+12    1.33e+04
CAP:     0.00e+00    0.00e+00    0.00e+00    0.00e+00    0.00e+00

Name:    d:u8:n1     d:u8:q2     d:u8:q1     d:u8:p      d:u8:ln
Model:    u8:dy       u8:dx       u8:dx       u8:dx       u8:dx
Id:      1.94e-06   -6.65e-13    1.16e-04   -1.70e-11   -1.01e-11
Vd:      6.00e-01   -6.65e-01    6.65e-01   -1.70e+01   -1.01e+01
Req:     1.33e+04    1.00e+12    2.24e+02    1.00e+12    1.00e+12
CAP:     0.00e+00    0.00e+00    0.00e+00    0.00e+00    0.00e+00

Name:    d:u8:lp     d:u8:e      d:u8:c      d:u7:n2     d:u7:n1
Model:    u8:dx       u8:dx       u8:dx       u7:dy       u7:dy
Id:     -9.89e-12   -1.01e-11   -4.91e-12    1.94e-06    1.94e-06
Vd:     -9.88e+00   -1.01e+01   -4.91e+00    6.00e-01    6.00e-01
Req:     1.00e+12    1.00e+12    1.00e+12    1.33e+04    1.33e+04
CAP:     0.00e+00    0.00e+00    0.00e+00    0.00e+00    0.00e+00

Name:    d:u7:q2     d:u7:q1     d:u7:p      d:u7:ln     d:u7:lp
Model:    u7:dx       u7:dx       u7:dx       u7:dx       u7:dx
Id:     -6.65e-13    1.16e-04   -1.70e-11   -1.01e-11   -9.89e-12
Vd:     -6.65e-01    6.65e-01   -1.70e+01   -1.01e+01   -9.88e+00
Req:     1.00e+12    2.24e+02    1.00e+12    1.00e+12    1.00e+12
CAP:     0.00e+00    0.00e+00    0.00e+00    0.00e+00    0.00e+00

Name:    d:u7:e      d:u7:c      d:u1:n2     d:u1:n1     d:u1:q2
Model:    u7:dx       u7:dx       u1:dy       u1:dy       u1:dx
Id:     -1.01e-11   -4.91e-12    1.94e-06    1.94e-06   -6.77e-13
Vd:     -1.01e+01   -4.91e+00    6.00e-01    6.00e-01   -6.76e-01
Req:     1.00e+12    1.00e+12    1.33e+04    1.33e+04    1.00e+12
CAP:     0.00e+00    0.00e+00    0.00e+00    0.00e+00    0.00e+00

Name:    d:u1:q1     d:u1:p      d:u1:ln     d:u1:lp     d:u1:e
Model:    u1:dx       u1:dx       u1:dx       u1:dx       u1:dx
Id:      1.79e-04   -1.70e-11   -1.02e-11   -9.82e-12   -1.33e-11
Vd:      6.76e-01   -1.70e+01   -1.02e+01   -9.82e+00   -1.33e+01
Req:     1.44e+02    1.00e+12    1.00e+12    1.00e+12    1.00e+12
CAP:     0.00e+00    0.00e+00    0.00e+00    0.00e+00    0.00e+00

Name:    d:u1:c      d:q5:4      d:q5:3      d:q5:2      d:q5:1
Model:    u1:dx      q5:md3      q5:md2      q5:md1       q5:md
Id:     -1.74e-12   -1.03e-10   -1.48e-10   -3.21e-12   -9.47e-09
Vd:     -1.74e+00   -3.21e+00   -3.21e+00   -3.21e+00   -3.25e+00
Req:     1.00e+12    1.00e+12    1.00e+12    1.00e+12    1.00e+12
CAP:     0.00e+00    0.00e+00    0.00e+00    1.14e-11    1.20e-11

Name:    d:q6:1      d:q7:4      d:q7:3      d:q7:2      d:q7:1
Model:  q6:dn0124    q7:md3      q7:md2      q7:md1       q7:md
Id:     -1.21e-11    8.71e+00    8.71e+00    2.61e-13   -7.97e-09
Vd:     -9.00e+00    2.61e-01    2.61e-01    2.61e-01   -7.14e-02
Req:     1.00e+12    1.19e-03    1.19e-03    1.00e+12    2.58e+07
CAP:     0.00e+00    0.00e+00    0.00e+00    1.02e-10    2.17e-11

Name:    d:q8:1
Model:  q8:dn0124
Id:     -1.13e-13
Vd:     -9.90e-04
Req:     8.89e+09
CAP:     0.00e+00

                        --- Bipolar Transistors ---
Name:     q:u6:2      q:u6:1      q:u4:2      q:u4:1      q:u2:2
Model:     u6:qx       u6:qx       u4:qx       u4:qx       u2:qx
Ib:      -4.96e-08   -4.97e-08   -4.96e-08   -4.97e-08   -4.97e-08
Ic:      -2.98e-06   -2.98e-06   -2.98e-06   -2.98e-06   -2.98e-06
Vbe:     -5.70e-01   -5.70e-01   -5.70e-01   -5.70e-01   -5.70e-01
Vbc:      9.95e+00    9.95e+00    9.95e+00    9.95e+00    9.47e+00
Vce:     -1.05e+01   -1.05e+01   -1.05e+01   -1.05e+01   -1.00e+01
BetaDC:   6.00e+01    6.00e+01    6.00e+01    6.00e+01    6.00e+01
Gm:       1.15e-04    1.15e-04    1.15e-04    1.15e-04    1.15e-04
Rpi:      5.21e+05    5.21e+05    5.21e+05    5.21e+05    5.20e+05
Rx:       0.00e+00    0.00e+00    0.00e+00    0.00e+00    0.00e+00
Ro:       0.00e+00    0.00e+00    0.00e+00    0.00e+00    0.00e+00
Cbe:      0.00e+00    0.00e+00    0.00e+00    0.00e+00    0.00e+00
Cbc:      0.00e+00    0.00e+00    0.00e+00    0.00e+00    0.00e+00
Cjs:      0.00e+00    0.00e+00    0.00e+00    0.00e+00    0.00e+00
BetaAC:   6.00e+01    6.00e+01    6.00e+01    6.00e+01    6.00e+01
Cbx:      0.00e+00    0.00e+00    0.00e+00    0.00e+00    0.00e+00
Ft:       0.00e+00    0.00e+00    0.00e+00    0.00e+00    0.00e+00

Name:     q:u2:1      q:u12:2     q:u12:1          qq1                qq2
Model:     u2:qx      u12:qx      u12:qx    qbd135__bjt_npn__1 qbd135__bjt_npn__1
Ib:      -4.98e-08   -5.04e-08   -5.03e-08      -8.69e-12           3.04e-03
Ic:      -2.99e-06   -3.02e-06   -3.02e-06       7.88e-12           3.15e-01
Vbe:     -5.70e-01   -5.70e-01   -5.70e-01      -7.72e-01           8.14e-01
Vbc:      9.47e+00    5.65e+00    5.65e+00      -7.77e+00          -2.15e+00
Vce:     -1.00e+01   -6.22e+00   -6.22e+00       7.00e+00           2.97e+00
BetaDC:   6.00e+01    6.00e+01    6.00e+01      -9.07e-01           1.04e+02
Gm:       1.15e-04    1.17e-04    1.17e-04       1.58e-25           1.06e+01
Rpi:      5.20e+05    5.13e+05    5.14e+05       1.00e+12           8.43e+00
Rx:       0.00e+00    0.00e+00    0.00e+00       5.00e-01           5.00e-01
Ro:       0.00e+00    0.00e+00    0.00e+00       5.74e+28           7.05e+02
Cbe:      0.00e+00    0.00e+00    0.00e+00       9.68e-11           1.10e-08
Cbc:      0.00e+00    0.00e+00    0.00e+00       9.37e-12           1.54e-11
Cjs:      0.00e+00    0.00e+00    0.00e+00       0.00e+00           0.00e+00
BetaAC:   6.00e+01    6.00e+01    6.00e+01       1.58e-13           8.91e+01
Cbx:      0.00e+00    0.00e+00    0.00e+00       0.00e+00           0.00e+00
Ft:       0.00e+00    0.00e+00    0.00e+00       1.50e-03           1.53e+08

Name:          qq11                   qq3                        qq12              q:u5:2      q:u5:1
Model:  qbd135__bjt_npn__1 qbc51-10pa/nxp__bjt_pnp__1 qbc51-10pa/nxp__bjt_pnp__1    u5:qx       u5:qx
Ib:         -1.21e-11              -2.25e-03                  -2.17e-04           -4.97e-08   -4.97e-08
Ic:          1.14e-11              -2.84e-01                  -3.14e-02           -2.98e-06   -2.98e-06
Vbe:        -6.94e-01              -7.72e-01                  -6.94e-01           -5.70e-01   -5.70e-01
Vbc:        -1.13e+01               9.23e+00                   5.71e+00            9.53e+00    9.53e+00
Vce:         1.06e+01              -1.00e+01                  -6.40e+00           -1.01e+01   -1.01e+01
BetaDC:     -9.41e-01               1.26e+02                   1.45e+02            6.00e+01    6.00e+01
Gm:          3.41e-24               9.35e+00                   1.19e+00            1.15e-04    1.15e-04
Rpi:         1.00e+12               1.14e+01                   1.19e+02            5.20e+05    5.20e+05
Rx:          5.00e-01               2.00e+00                   2.00e+00            0.00e+00    0.00e+00
Ro:          2.69e+27               3.89e+02                   3.41e+03            0.00e+00    0.00e+00
Cbe:         9.86e-11               9.13e-09                   1.39e-09            0.00e+00    0.00e+00
Cbc:         8.03e-12               6.80e-12                   8.29e-12            0.00e+00    0.00e+00
Cjs:         0.00e+00               0.00e+00                   0.00e+00            0.00e+00    0.00e+00
BetaAC:      3.41e-12               1.07e+02                   1.42e+02            6.00e+01    6.00e+01
Cbx:         0.00e+00               8.65e-12                   1.05e-11            0.00e+00    0.00e+00
Ft:          1.49e-03               1.63e+08                   1.35e+08            0.00e+00    0.00e+00

Name:     q:u3:2      q:u3:1      q:u8:2      q:u8:1      q:u7:2
Model:     u3:qx       u3:qx       u8:qx       u8:qx       u7:qx
Ib:      -5.03e-08   -5.02e-08   -4.95e-08   -4.95e-08   -4.95e-08
Ic:      -3.02e-06   -3.01e-06   -2.97e-06   -2.97e-06   -2.97e-06
Vbe:     -5.70e-01   -5.70e-01   -5.70e-01   -5.70e-01   -5.70e-01
Vbc:      6.35e+00    6.35e+00    1.07e+01    1.07e+01    1.07e+01
Vce:     -6.92e+00   -6.92e+00   -1.13e+01   -1.13e+01   -1.13e+01
BetaDC:   6.00e+01    6.00e+01    6.00e+01    6.00e+01    6.00e+01
Gm:       1.17e-04    1.17e-04    1.15e-04    1.15e-04    1.15e-04
Rpi:      5.15e+05    5.15e+05    5.23e+05    5.22e+05    5.23e+05
Rx:       0.00e+00    0.00e+00    0.00e+00    0.00e+00    0.00e+00
Ro:       0.00e+00    0.00e+00    0.00e+00    0.00e+00    0.00e+00
Cbe:      0.00e+00    0.00e+00    0.00e+00    0.00e+00    0.00e+00
Cbc:      0.00e+00    0.00e+00    0.00e+00    0.00e+00    0.00e+00
Cjs:      0.00e+00    0.00e+00    0.00e+00    0.00e+00    0.00e+00
BetaAC:   6.00e+01    6.00e+01    6.00e+01    6.00e+01    6.00e+01
Cbx:      0.00e+00    0.00e+00    0.00e+00    0.00e+00    0.00e+00
Ft:       0.00e+00    0.00e+00    0.00e+00    0.00e+00    0.00e+00

Name:     q:u7:1      q:u1:2      q:u1:1           qdut
Model:     u7:qx       u1:qx       u1:qx    2n3906__bjt_pnp__1
Ib:      -4.95e-08   -4.89e-08   -4.91e-08      -3.17e-02
Ic:      -2.97e-06   -2.94e-06   -2.94e-06      -2.86e-01
Vbe:     -5.70e-01   -5.70e-01   -5.70e-01      -1.22e+00
Vbc:      1.07e+01    1.39e+01    1.39e+01      -4.29e-01
Vce:     -1.13e+01   -1.45e+01   -1.45e+01      -7.88e-01
BetaDC:   6.00e+01    6.00e+01    6.00e+01       9.01e+00
Gm:       1.15e-04    1.14e-04    1.14e-04       6.55e+00
Rpi:      5.22e+05    5.28e+05    5.27e+05       2.59e+00
Rx:       0.00e+00    0.00e+00    0.00e+00       1.00e+01
Ro:       0.00e+00    0.00e+00    0.00e+00       1.29e+00
Cbe:      0.00e+00    0.00e+00    0.00e+00       1.09e-08
Cbc:      0.00e+00    0.00e+00    0.00e+00       1.40e-07
Cjs:      0.00e+00    0.00e+00    0.00e+00       0.00e+00
BetaAC:   6.00e+01    6.00e+01    6.00e+01       1.69e+01
Cbx:      0.00e+00    0.00e+00    0.00e+00       0.00e+00
Ft:       0.00e+00    0.00e+00    0.00e+00       6.91e+06

                        --- MOSFET Transistors ---
Name:        m:q5:1      m:q6:1      m:q7:1      m:q8:1
Model:        q5:mm     q6:mn0124     q7:mm     q8:mn0124
Id:         -6.49e-12    1.80e-11   -3.18e-01    9.03e-05
Vgs:        -3.75e-02    0.00e+00   -8.98e+00    5.00e+00
Vds:        -3.25e+00    9.00e+00   -9.42e-03    9.90e-04
Vbs:         0.00e+00    0.00e+00    0.00e+00    0.00e+00
Vth:        -8.68e-01    1.55e+00   -8.68e-01    1.55e+00
Vdsat:      -0.00e+00    0.00e+00   -8.11e+00    3.45e+00
Gm:          0.00e+00    0.00e+00    3.92e-02    2.62e-05
Gds:         0.00e+00    0.00e+00    3.37e+01    3.71e+00
Gmb:         0.00e+00    0.00e+00    0.00e+00    0.00e+00
Cbd:         0.00e+00    1.14e-11    0.00e+00    3.60e-11
Cbs:         0.00e+00    0.00e+00    0.00e+00    0.00e+00
Cgsov:       1.38e-10    6.00e-15    1.38e-10    6.00e-15
Cgdov:       1.16e-11    2.00e-16    1.16e-11    2.00e-16
Cgbov:       0.00e+00    0.00e+00    0.00e+00    0.00e+00
Cgs:         0.00e+00    0.00e+00    0.00e+00    0.00e+00
Cgd:         0.00e+00    0.00e+00    0.00e+00    0.00e+00
Cgb:         0.00e+00    0.00e+00    0.00e+00    0.00e+00



Date: Mon Mar 20 00:05:38 2023
Total elapsed time: 3.871 seconds.

tnom = 27
temp = 27
method = trap
totiter = 2974
traniter = 0
tranpoints = 0
accept = 0
rejected = 0
matrix size = 460
fillins = 1896
solver = Normal
Thread vector: 49.0/25.2[4] 0.0/0.0[0] 13.9/11.1[4] 3.3/103.5[1]  2592/500
Matrix Compiler1: 259.21 KB object code size
Matrix Compiler2: 69.69 KB object code size  14.2/10.8/[5.9]

