Circuit: ** DC circuit - 2 **

Direct Newton iteration for .op point skipped.
Gmin stepping method for .op point skipped.
Starting source stepping with srcstepmethod=0
Source Step = 3.0303%
Source Step = 33.3333%
vernier = 0.25
Source Step = 30.3208%
Source Step = 30.3504%
Source Step = 30.38%
Source Step = 30.4096%
Source Step = 30.4392%
vernier = 0.00146484
Source Step = 30.4747%
Source Step = 30.5191%
Source Step = 30.5634%
Source Step = 30.6078%
Source Step = 30.6522%
vernier = 0.00219727
Source Step = 30.7033%
Source Step = 30.7699%
Source Step = 30.8364%
Source Step = 30.903%
Source Step = 30.9696%
vernier = 0.0032959
Source Step = 31.0429%
Source Step = 31.1427%
Source Step = 31.2426%
Source Step = 31.3425%
Source Step = 31.4424%
vernier = 0.00494385
Source Step = 31.5472%
Source Step = 31.697%
Source Step = 31.8468%
Source Step = 31.9967%
Source Step = 32.1465%
Source Step = 32.2963%
vernier = 0.00741577
Source Step = 32.521%
Source Step = 32.7457%
Source Step = 32.9705%
Source Step = 33.1952%
Source Step = 33.4199%
vernier = 0.0111237
Source Step = 33.7457%
Source Step = 34.0828%
Source Step = 34.4199%
Source Step = 34.757%
Source Step = 35.0941%
vernier = 0.0166855
Source Step = 35.566%
Source Step = 36.0716%
Source Step = 36.5772%
Source Step = 37.0828%
Source Step = 37.5885%
vernier = 0.0250282
Source Step = 38.271%
Source Step = 39.0295%
Source Step = 39.7879%
Source Step = 40.5463%
Source Step = 41.3048%
vernier = 0.0375423
Source Step = 42.2907%
Source Step = 43.4284%
Source Step = 44.566%
Source Step = 45.7037%
Source Step = 46.8413%
vernier = 0.0563135
Source Step = 48.2634%
Source Step = 49.9698%
Source Step = 51.6763%
Source Step = 53.3828%
Source Step = 55.0893%
vernier = 0.0844703
Source Step = 57.137%
Source Step = 59.6967%
Source Step = 62.2564%
Source Step = 64.8161%
Source Step = 67.3758%
vernier = 0.126705
Source Step = 70.3195%
Source Step = 74.1591%
Source Step = 77.9986%
Source Step = 81.8382%
Source Step = 85.6777%
vernier = 0.190058
Source Step = 89.9012%
Source Step = 95.6606%
Source Step = 100%
Source stepping succeeded in finding the operating point.

Semiconductor Device Operating Points:
                        --- Diodes ---
Name:    d:u6:n2     d:u6:n1     d:u6:q2     d:u6:q1     d:u6:p
Model:    u6:dy       u6:dy       u6:dx       u6:dx       u6:dx
Id:      1.94e-06    1.94e-06    4.81e-08   -4.64e-13   -1.70e-11
Vd:      6.00e-01    6.00e-01    4.63e-01   -4.63e-01   -1.70e+01
Req:     1.33e+04    1.33e+04    5.38e+05    1.00e+12    1.00e+12
CAP:     0.00e+00    0.00e+00    0.00e+00    0.00e+00    0.00e+00

Name:    d:u6:ln     d:u6:lp     d:u6:e      d:u6:c      d:u4:n2
Model:    u6:dx       u6:dx       u6:dx       u6:dx       u4:dy
Id:     -1.00e-11   -1.00e-11   -4.35e-12   -1.07e-11    1.94e-06
Vd:     -1.00e+01   -1.00e+01   -4.35e+00   -1.07e+01    6.00e-01
Req:     1.00e+12    1.00e+12    1.00e+12    1.00e+12    1.33e+04
CAP:     0.00e+00    0.00e+00    0.00e+00    0.00e+00    0.00e+00

Name:    d:u4:n1     d:u4:q2     d:u4:q1     d:u4:p      d:u4:ln
Model:    u4:dy       u4:dx       u4:dx       u4:dx       u4:dx
Id:      1.94e-06    4.02e-03   -7.57e-13   -1.70e-11   -5.99e-12
Vd:      6.00e-01    7.56e-01   -7.56e-01   -1.70e+01   -5.98e+00
Req:     1.33e+04    6.44e+00    1.00e+12    1.00e+12    1.00e+12
CAP:     0.00e+00    0.00e+00    0.00e+00    0.00e+00    0.00e+00

Name:    d:u4:lp     d:u4:e      d:u4:c      d:u2:n2     d:u2:n1
Model:    u4:dx       u4:dx       u4:dx       u2:dy       u2:dy
Id:     -1.40e-11   -3.55e-12   -1.15e-11    1.94e-06    1.94e-06
Vd:     -1.40e+01   -3.55e+00   -1.15e+01    6.00e-01    6.00e-01
Req:     1.00e+12    1.00e+12    1.00e+12    1.33e+04    1.33e+04
CAP:     0.00e+00    0.00e+00    0.00e+00    0.00e+00    0.00e+00

Name:    d:u2:q2     d:u2:q1     d:u2:p      d:u2:ln     d:u2:lp
Model:    u2:dx       u2:dx       u2:dx       u2:dx       u2:dx
Id:     -7.56e-13    3.88e-03   -1.70e-11   -1.39e-11   -6.12e-12
Vd:     -7.56e-01    7.56e-01   -1.70e+01   -1.39e+01   -6.12e+00
Req:     1.00e+12    6.66e+00    1.00e+12    1.00e+12    1.00e+12
CAP:     0.00e+00    0.00e+00    0.00e+00    0.00e+00    0.00e+00

Name:    d:u2:e      d:u2:c     d:u12:n2    d:u12:n1    d:u12:q2
Model:    u2:dx       u2:dx      u12:dy      u12:dy      u12:dx
Id:     -9.76e-12   -5.30e-12    1.94e-06    1.94e-06   -6.92e-13
Vd:     -9.76e+00   -5.29e+00    6.00e-01    6.00e-01   -6.91e-01
Req:     1.00e+12    1.00e+12    1.33e+04    1.33e+04    1.00e+12
CAP:     0.00e+00    0.00e+00    0.00e+00    0.00e+00    0.00e+00

Name:   d:u12:q1     d:u12:p    d:u12:ln    d:u12:lp     d:u12:e
Model:   u12:dx      u12:dx      u12:dx      u12:dx      u12:dx
Id:      3.23e-04   -1.70e-11   -1.03e-11   -9.68e-12   -1.03e-11
Vd:      6.91e-01   -1.70e+01   -1.03e+01   -9.68e+00   -1.03e+01
Req:     8.01e+01    1.00e+12    1.00e+12    1.00e+12    1.00e+12
CAP:     0.00e+00    0.00e+00    0.00e+00    0.00e+00    0.00e+00

Name:    d:u12:c     d:u5:n2     d:u5:n1     d:u5:q2     d:u5:q1
Model:   u12:dx       u5:dy       u5:dy       u5:dx       u5:dx
Id:     -4.75e-12    1.94e-06    1.94e-06   -6.26e-13    2.50e-05
Vd:     -4.75e+00    6.00e-01    6.00e-01   -6.25e-01    6.25e-01
Req:     1.00e+12    1.33e+04    1.33e+04    1.00e+12    1.03e+03
CAP:     0.00e+00    0.00e+00    0.00e+00    0.00e+00    0.00e+00

Name:    d:u5:p      d:u5:ln     d:u5:lp     d:u5:e      d:u5:c
Model:    u5:dx       u5:dx       u5:dx       u5:dx       u5:dx
Id:     -1.70e-11   -1.00e-11   -9.98e-12   -5.60e-12   -9.45e-12
Vd:     -1.70e+01   -1.00e+01   -9.98e+00   -5.60e+00   -9.45e+00
Req:     1.00e+12    1.00e+12    1.00e+12    1.00e+12    1.00e+12
CAP:     0.00e+00    0.00e+00    0.00e+00    0.00e+00    0.00e+00

Name:    d:u3:n2     d:u3:n1     d:u3:q2     d:u3:q1     d:u3:p
Model:    u3:dy       u3:dy       u3:dx       u3:dx       u3:dx
Id:      1.94e-06    1.94e-06   -6.63e-13    1.05e-04   -1.70e-11
Vd:      6.00e-01    6.00e-01   -6.62e-01    6.62e-01   -1.70e+01
Req:     1.33e+04    1.33e+04    1.00e+12    2.47e+02    1.00e+12
CAP:     0.00e+00    0.00e+00    0.00e+00    0.00e+00    0.00e+00

Name:    d:u3:ln     d:u3:lp     d:u3:e      d:u3:c      d:u8:n2
Model:    u3:dx       u3:dx       u3:dx       u3:dx       u8:dy
Id:     -1.01e-11   -9.90e-12   -9.59e-12   -5.46e-12    1.94e-06
Vd:     -1.01e+01   -9.90e+00   -9.59e+00   -5.46e+00    6.00e-01
Req:     1.00e+12    1.00e+12    1.00e+12    1.00e+12    1.33e+04
CAP:     0.00e+00    0.00e+00    0.00e+00    0.00e+00    0.00e+00

Name:    d:u8:n1     d:u8:q2     d:u8:q1     d:u8:p      d:u8:ln
Model:    u8:dy       u8:dx       u8:dx       u8:dx       u8:dx
Id:      1.94e-06   -6.01e-13    9.41e-06   -1.70e-11   -1.00e-11
Vd:      6.00e-01   -6.00e-01    6.00e-01   -1.70e+01   -1.00e+01
Req:     1.33e+04    1.00e+12    2.75e+03    1.00e+12    1.00e+12
CAP:     0.00e+00    0.00e+00    0.00e+00    0.00e+00    0.00e+00

Name:    d:u8:lp     d:u8:e      d:u8:c      d:u7:n2     d:u7:n1
Model:    u8:dx       u8:dx       u8:dx       u7:dy       u7:dy
Id:     -9.99e-12   -4.82e-12   -1.02e-11    1.94e-06    1.94e-06
Vd:     -9.99e+00   -4.82e+00   -1.02e+01    6.00e-01    6.00e-01
Req:     1.00e+12    1.00e+12    1.00e+12    1.33e+04    1.33e+04
CAP:     0.00e+00    0.00e+00    0.00e+00    0.00e+00    0.00e+00

Name:    d:u7:q2     d:u7:q1     d:u7:p      d:u7:ln     d:u7:lp
Model:    u7:dx       u7:dx       u7:dx       u7:dx       u7:dx
Id:     -6.01e-13    9.42e-06   -1.70e-11   -1.00e-11   -9.99e-12
Vd:     -6.00e-01    6.00e-01   -1.70e+01   -1.00e+01   -9.99e+00
Req:     1.00e+12    2.75e+03    1.00e+12    1.00e+12    1.00e+12
CAP:     0.00e+00    0.00e+00    0.00e+00    0.00e+00    0.00e+00

Name:    d:u7:e      d:u7:c      d:u1:n2     d:u1:n1     d:u1:q2
Model:    u7:dx       u7:dx       u1:dy       u1:dy       u1:dx
Id:     -4.82e-12   -1.02e-11    1.94e-06    1.94e-06   -6.59e-13
Vd:     -4.82e+00   -1.02e+01    6.00e-01    6.00e-01   -6.58e-01
Req:     1.00e+12    1.00e+12    1.33e+04    1.33e+04    1.00e+12
CAP:     0.00e+00    0.00e+00    0.00e+00    0.00e+00    0.00e+00

Name:    d:u1:q1     d:u1:p      d:u1:ln     d:u1:lp     d:u1:e
Model:    u1:dx       u1:dx       u1:dx       u1:dx       u1:dx
Id:      8.93e-05   -1.70e-11   -1.01e-11   -9.91e-12   -8.82e-12
Vd:      6.58e-01   -1.70e+01   -1.01e+01   -9.91e+00   -8.82e+00
Req:     2.90e+02    1.00e+12    1.00e+12    1.00e+12    1.00e+12
CAP:     0.00e+00    0.00e+00    0.00e+00    0.00e+00    0.00e+00

Name:    d:u1:c      d:q5:4      d:q5:3      d:q5:2      d:q5:1
Model:    u1:dx      q5:md3      q5:md2      q5:md1       q5:md
Id:     -6.23e-12   -1.04e-10    0.00e+00   -4.08e-12   -9.47e-09
Vd:     -6.23e+00   -4.08e+00   -4.08e+00   -4.08e+00   -4.10e+00
Req:     1.00e+12    1.00e+12    1.00e+12    1.00e+12    1.00e+12
CAP:     0.00e+00    0.00e+00    0.00e+00    9.43e-12    1.08e-11

Name:    d:q6:1      d:q7:4      d:q7:3      d:q7:2      d:q7:1
Model:  q6:dn0124    q7:md3      q7:md2      q7:md1       q7:md
Id:     -7.62e-12    4.22e+00    4.22e+00    2.53e-13   -8.83e-09
Vd:     -4.55e+00    2.53e-01    2.53e-01    2.53e-01   -1.04e-01
Req:     1.00e+12    2.45e-03    2.45e-03    1.00e+12    6.05e+07
CAP:     0.00e+00    0.00e+00    0.00e+00    1.01e-10    2.15e-11

Name:    d:q8:1
Model:  q8:dn0124
Id:     -5.79e-14
Vd:     -5.01e-04
Req:     8.73e+09
CAP:     0.00e+00

                        --- Bipolar Transistors ---
Name:     q:u6:2      q:u6:1      q:u4:2      q:u4:1      q:u2:2
Model:     u6:qx       u6:qx       u4:qx       u4:qx       u2:qx
Ib:      -5.05e-08   -5.04e-08   -5.05e-08   -5.04e-08   -5.01e-08
Ic:      -3.03e-06   -3.03e-06   -3.03e-06   -3.03e-06   -3.01e-06
Vbe:     -5.70e-01   -5.70e-01   -5.70e-01   -5.70e-01   -5.70e-01
Vbc:      4.95e+00    4.95e+00    4.95e+00    4.95e+00    7.24e+00
Vce:     -5.52e+00   -5.52e+00   -5.52e+00   -5.52e+00   -7.81e+00
BetaDC:   6.00e+01    6.00e+01    6.00e+01    6.00e+01    6.00e+01
Gm:       1.17e-04    1.17e-04    1.17e-04    1.17e-04    1.16e-04
Rpi:      5.12e+05    5.13e+05    5.12e+05    5.13e+05    5.16e+05
Rx:       0.00e+00    0.00e+00    0.00e+00    0.00e+00    0.00e+00
Ro:       4.94e+96    4.96e+96    4.93e+96    4.95e+96    0.00e+00
Cbe:      0.00e+00    0.00e+00    0.00e+00    0.00e+00    0.00e+00
Cbc:      0.00e+00    0.00e+00    0.00e+00    0.00e+00    0.00e+00
Cjs:      0.00e+00    0.00e+00    0.00e+00    0.00e+00    0.00e+00
BetaAC:   6.00e+01    6.00e+01    6.00e+01    6.00e+01    6.00e+01
Cbx:      0.00e+00    0.00e+00    0.00e+00    0.00e+00    0.00e+00
Ft:       0.00e+00    0.00e+00    0.00e+00    0.00e+00    0.00e+00

Name:     q:u2:1      q:u12:2     q:u12:1          qq1                qq2
Model:     u2:qx      u12:qx      u12:qx    qbd135__bjt_npn__1 qbd135__bjt_npn__1
Ib:      -5.01e-08   -5.00e-08   -5.00e-08      -1.37e-11           3.88e-03
Ic:      -3.01e-06   -3.00e-06   -3.00e-06       1.29e-11           3.96e-01
Vbe:     -5.70e-01   -5.70e-01   -5.70e-01      -7.99e-01           8.34e-01
Vbc:      7.24e+00    7.58e+00    7.58e+00      -1.28e+01          -6.59e+00
Vce:     -7.81e+00   -8.15e+00   -8.15e+00       1.20e+01           7.43e+00
BetaDC:   6.00e+01    6.00e+01    6.00e+01      -9.40e-01           1.02e+02
Gm:       1.16e-04    1.16e-04    1.16e-04       5.63e-26           1.29e+01
Rpi:      5.16e+05    5.17e+05    5.17e+05       1.00e+12           6.60e+00
Rx:       0.00e+00    0.00e+00    0.00e+00       5.00e-01           5.00e-01
Ro:       0.00e+00    0.00e+00    0.00e+00       1.64e+29           5.72e+02
Cbe:      0.00e+00    0.00e+00    0.00e+00       9.62e-11           1.10e-08
Cbc:      0.00e+00    0.00e+00    0.00e+00       7.62e-12           1.00e-11
Cjs:      0.00e+00    0.00e+00    0.00e+00       0.00e+00           0.00e+00
BetaAC:   6.00e+01    6.00e+01    6.00e+01       5.63e-14           8.53e+01
Cbx:      0.00e+00    0.00e+00    0.00e+00       0.00e+00           0.00e+00
Ft:       0.00e+00    0.00e+00    0.00e+00       1.53e-03           1.87e+08

Name:          qq11                   qq3                        qq12              q:u5:2      q:u5:1
Model:  qbd135__bjt_npn__1 qbc51-10pa/nxp__bjt_pnp__1 qbc51-10pa/nxp__bjt_pnp__1    u5:qx       u5:qx
Ib:          3.23e-04              -4.02e-03                   1.17e-11           -5.03e-08   -5.02e-08
Ic:          3.98e-02              -4.35e-01                  -1.10e-11           -3.02e-06   -3.02e-06
Vbe:         7.09e-01              -7.99e-01                   7.09e-01           -5.70e-01   -5.70e-01
Vbc:        -6.05e+00               4.20e+00                   1.10e+01            6.21e+00    6.21e+00
Vce:         6.76e+00              -5.00e+00                  -1.02e+01           -6.78e+00   -6.78e+00
BetaDC:      1.23e+02               1.08e+02                  -9.39e-01            6.00e+01    6.00e+01
Gm:          1.52e+00               1.34e+01                   2.63e-24            1.17e-04    1.17e-04
Rpi:         7.93e+01               6.40e+00                   1.00e+12            5.14e+05    5.15e+05
Rx:          5.00e-01               2.00e+00                   2.00e+00            0.00e+00    0.00e+00
Ro:          5.68e+03               2.42e+02                   1.79e+27            0.00e+00    0.00e+00
Cbe:         1.35e-09               1.59e-08                   8.97e-11            0.00e+00    0.00e+00
Cbc:         1.04e-11               9.41e-12                   6.31e-12            0.00e+00    0.00e+00
Cjs:         0.00e+00               0.00e+00                   0.00e+00            0.00e+00    0.00e+00
BetaAC:      1.20e+02               8.58e+01                   2.63e-12            6.00e+01    6.00e+01
Cbx:         0.00e+00               1.20e-11                   8.03e-12            0.00e+00    0.00e+00
Ft:          1.77e+08               1.34e+08                   1.53e-03            0.00e+00    0.00e+00

Name:     q:u3:2      q:u3:1      q:u8:2      q:u8:1      q:u7:2
Model:     u3:qx       u3:qx       u8:qx       u8:qx       u7:qx
Ib:      -4.96e-08   -4.96e-08   -5.04e-08   -5.04e-08   -5.04e-08
Ic:      -2.98e-06   -2.98e-06   -3.03e-06   -3.02e-06   -3.03e-06
Vbe:     -5.70e-01   -5.70e-01   -5.70e-01   -5.70e-01   -5.70e-01
Vbc:      1.02e+01    1.02e+01    5.43e+00    5.43e+00    5.43e+00
Vce:     -1.08e+01   -1.08e+01   -6.00e+00   -6.00e+00   -6.00e+00
BetaDC:   6.00e+01    6.00e+01    6.00e+01    6.00e+01    6.00e+01
Gm:       1.15e-04    1.15e-04    1.17e-04    1.17e-04    1.17e-04
Rpi:      5.22e+05    5.21e+05    5.13e+05    5.13e+05    5.13e+05
Rx:       0.00e+00    0.00e+00    0.00e+00    0.00e+00    0.00e+00
Ro:       0.00e+00    0.00e+00    0.00e+00    0.00e+00    0.00e+00
Cbe:      0.00e+00    0.00e+00    0.00e+00    0.00e+00    0.00e+00
Cbc:      0.00e+00    0.00e+00    0.00e+00    0.00e+00    0.00e+00
Cjs:      0.00e+00    0.00e+00    0.00e+00    0.00e+00    0.00e+00
BetaAC:   6.00e+01    6.00e+01    6.00e+01    6.00e+01    6.00e+01
Cbx:      0.00e+00    0.00e+00    0.00e+00    0.00e+00    0.00e+00
Ft:       0.00e+00    0.00e+00    0.00e+00    0.00e+00    0.00e+00

Name:     q:u7:1      q:u1:2      q:u1:1           qdut
Model:     u7:qx       u1:qx       u1:qx    2n3415__bjt_npn__1
Ib:      -5.04e-08   -4.97e-08   -4.98e-08       3.99e-02
Ic:      -3.02e-06   -2.98e-06   -2.99e-06       3.99e-01
Vbe:     -5.70e-01   -5.70e-01   -5.70e-01       1.25e+00
Vbc:      5.43e+00    9.42e+00    9.42e+00       7.79e-01
Vce:     -6.00e+00   -9.99e+00   -9.99e+00       4.73e-01
BetaDC:   6.00e+01    6.00e+01    6.00e+01       1.00e+01
Gm:       1.17e-04    1.15e-04    1.15e-04       9.21e+00
Rpi:      5.13e+05    5.20e+05    5.20e+05       3.86e+00
Rx:       0.00e+00    0.00e+00    0.00e+00       1.00e+01
Ro:       0.00e+00    0.00e+00    0.00e+00       9.66e-01
Cbe:      0.00e+00    0.00e+00    0.00e+00       4.28e-08
Cbc:      0.00e+00    0.00e+00    0.00e+00       3.98e-09
Cjs:      0.00e+00    0.00e+00    0.00e+00       0.00e+00
BetaAC:   6.00e+01    6.00e+01    6.00e+01       3.55e+01
Cbx:      0.00e+00    0.00e+00    0.00e+00       0.00e+00
Ft:       0.00e+00    0.00e+00    0.00e+00       3.13e+07

                        --- MOSFET Transistors ---
Name:        m:q5:1      m:q6:1      m:q7:1      m:q8:1
Model:        q5:mm     q6:mn0124     q7:mm     q8:mn0124
Id:         -8.20e-12    9.10e-12   -3.99e-01    4.57e-05
Vgs:        -1.90e-02    0.00e+00   -4.50e+00    5.00e+00
Vds:        -4.10e+00    4.55e+00   -2.65e-02    5.01e-04
Vbs:         0.00e+00    0.00e+00    0.00e+00    0.00e+00
Vth:        -8.68e-01    1.55e+00   -8.68e-01    1.55e+00
Vdsat:      -0.00e+00    0.00e+00   -3.64e+00    3.45e+00
Gm:          0.00e+00    0.00e+00    1.10e-01    1.33e-05
Gds:         0.00e+00    0.00e+00    1.50e+01    3.71e+00
Gmb:         0.00e+00    0.00e+00    0.00e+00    0.00e+00
Cbd:         0.00e+00    1.53e-11    0.00e+00    3.60e-11
Cbs:         0.00e+00    0.00e+00    0.00e+00    0.00e+00
Cgsov:       1.38e-10    6.00e-15    1.38e-10    6.00e-15
Cgdov:       1.16e-11    2.00e-16    1.16e-11    2.00e-16
Cgbov:       0.00e+00    0.00e+00    0.00e+00    0.00e+00
Cgs:         0.00e+00    0.00e+00    0.00e+00    0.00e+00
Cgd:         0.00e+00    0.00e+00    0.00e+00    0.00e+00
Cgb:         0.00e+00    0.00e+00    0.00e+00    0.00e+00



Date: Thu Mar 23 00:29:05 2023
Total elapsed time: 5.144 seconds.

tnom = 27
temp = 27
method = trap
totiter = 2986
traniter = 0
tranpoints = 0
accept = 0
rejected = 0
matrix size = 460
fillins = 2465
solver = Normal
Thread vector: 49.1/35.6[4] 0.0/0.0[0] 15.4/11.3[2] 3.6/5.0[1]  2592/500
Matrix Compiler1: 327.75 KB object code size
Matrix Compiler2: 80.08 KB object code size  13.2/11.2/[6.2]

